date Fri Mar 02 11:43:20 2012
base hex  timestamps absolute
internal events logged
// version 7.2.0
   0.000002 1  42B             Rx   d 6 1A 01 04 01 00 00
   0.001832 1  658             Rx   d 8 78 14 00 0F 40 FF 00 00
   0.003770 1  6D2             Rx   d 3 3A 19 00
   0.005862 1  653             Rx   d 3 80 0A 40
   0.007889 1  2C1             Rx   d 6 00 00 00 00 22 00
   0.009792 1  35B             Rx   d 8 0F 00 00 00 00 00 00 00
   0.011887 1  470             Rx   d 8 00 00 00 00 00 00 00 00
   0.013805 1  575             Rx   d 4 03 00 00 00
   0.015811 1  43A             Rx   d 8 0B 01 02 01 00 00 00 00
   0.017805 1  359             Rx   d 8 FF 89 FF 00 00 00 80 00
   0.019797 1  527             Rx   d 8 04 01 00 00 00 00 00 00
   0.021806 1  66F             Rx   d 8 3A D3 03 00 03 07 01 01
   0.023806 1  65F             Rx   d 8 02 30 30 34 32 33 30 35
   0.025806 1  651             Rx   d 8 C0 05 26 2F 00 00 C0 00
   0.027797 1  470             Rx   d 8 00 00 00 00 00 00 00 00
   0.029792 1  42B             Rx   d 6 1A 01 04 01 00 00
   0.031798 1  658             Rx   d 8 78 14 00 0F 40 FF 00 00
   0.033774 1  2C1             Rx   d 6 00 00 00 00 22 00
   0.035797 1  35B             Rx   d 8 0F 00 00 00 00 00 00 00
   0.037773 1  470             Rx   d 8 00 00 00 00 00 00 00 00
   0.039774 1  655             Rx   d 8 00 00 00 00 00 00 00 00
   0.040790 1  43A             Rx   d 8 0B 01 02 01 00 00 00 00
   0.042823 1  359             Rx   d 8 FF 89 FF 00 00 00 80 00
   0.044811 1  651             Rx   d 8 C0 05 26 2F 00 00 C0 00
   0.045754 1  665             Rx   d 7 80 00 00 00 00 00 F0
   0.046842 1  470             Rx   d 8 00 00 00 00 00 00 00 00
   0.048793 1  42B             Rx   d 6 1A 01 04 01 00 00
   0.050815 1  658             Rx   d 8 78 14 00 0F 40 FF 00 00
   0.052804 1  571             Rx   d 6 00 00 00 00 00 00
   0.053754 1  2C1             Rx   d 6 00 00 00 00 22 00
   0.054753 1  35B             Rx   d 8 0F 00 00 00 00 00 00 00
   0.055861 1  470             Rx   d 8 00 00 00 00 00 00 00 00
   0.057822 1  575             Rx   d 4 03 00 00 00
   0.059788 1  43A             Rx   d 8 0B 01 02 01 00 00 00 00
   0.060778 1  359             Rx   d 8 FF 89 FF 00 00 00 80 00
   0.066805 1  527             Rx   d 8 04 01 00 00 00 00 00 00
   0.068792 1  65F             Rx   d 8 00 C9 6B 7C 8C 42 56 57
   0.070783 1  651             Rx   d 8 C0 05 26 2F 00 00 C0 00
   0.072802 1  470             Rx   d 8 00 00 00 00 00 00 00 00
   0.074802 1  42B             Rx   d 6 1A 01 04 01 00 00
   0.076802 1  658             Rx   d 8 78 14 00 0F 40 FF 00 00
   0.078799 1  2C1             Rx   d 6 00 00 00 00 22 00
   0.080782 1  35B             Rx   d 8 0F 00 00 00 00 00 00 00
   0.082803 1  470             Rx   d 8 00 00 00 00 00 00 00 00
   0.084793 1  43A             Rx   d 8 0B 01 02 01 00 00 00 00
   0.086789 1  359             Rx   d 8 FF 89 FF 00 00 00 80 00
   0.088793 1  651             Rx   d 8 C0 05 26 2F 00 00 C0 00
   0.090800 1  470             Rx   d 8 00 00 00 00 00 00 00 00
   0.092794 1  42B             Rx   d 6 1A 01 04 01 00 00
   0.094789 1  658             Rx   d 8 78 14 00 0F 40 FF 00 00
   0.096820 1  2C1             Rx   d 6 00 00 00 00 22 00
   0.098809 1  35B             Rx   d 8 0F 00 00 00 00 00 00 00
   0.100801 1  470             Rx   d 8 00 00 00 00 00 00 00 00
   0.102803 1  575             Rx   d 4 03 00 00 00
   0.104792 1  43A             Rx   d 8 0B 01 02 01 00 00 00 00
   0.106798 1  359             Rx   d 8 FF 89 FF 00 00 00 80 00
   0.108803 1  527             Rx   d 8 04 01 00 00 00 00 00 00
   0.110792 1  65F             Rx   d 8 01 45 4B 33 37 50 5A 31
   0.112801 1  651             Rx   d 8 C0 05 26 2F 00 00 C0 00
   0.114809 1  62C             Rx   d 3 3C 0E 02
   0.116796 1  470             Rx   d 8 00 00 00 00 00 00 00 00
   0.118792 1  42B             Rx   d 6 1A 01 04 01 00 00
   0.120801 1  658             Rx   d 8 78 14 00 0F 40 FF 00 00
   0.122798 1  653             Rx   d 3 80 0A 40
   0.124797 1  2C1             Rx   d 6 00 00 00 00 22 00
   0.126808 1  35B             Rx   d 8 0F 00 00 00 00 00 00 00
   0.128794 1  470             Rx   d 8 00 00 00 00 00 00 00 00
   0.130784 1  43A             Rx   d 8 0B 01 02 01 00 00 00 00
   0.132805 1  359             Rx   d 8 FF 89 FF 00 00 00 80 00
   0.134823 1  651             Rx   d 8 C0 05 26 2F 00 00 C0 00
   0.136788 1  470             Rx   d 8 00 00 00 00 00 00 00 00
   0.138789 1  42B             Rx   d 6 1A 01 04 01 00 00
   0.140809 1  658             Rx   d 8 78 14 00 0F 40 FF 00 00
   0.142794 1  2C1             Rx   d 6 00 00 00 00 22 00
   0.144798 1  35B             Rx   d 8 0F 00 00 00 00 00 00 00
   0.146810 1  470             Rx   d 8 00 00 00 00 00 00 00 00
   0.148808 1  575             Rx   d 4 03 00 00 00
   0.150802 1  655             Rx   d 8 00 00 00 00 00 00 00 00
   0.152794 1  43A             Rx   d 8 0B 01 02 01 00 00 00 00
   0.154806 1  359             Rx   d 8 FF 89 FF 00 00 00 80 00
   0.156801 1  527             Rx   d 8 04 01 00 00 00 00 00 00
   0.158804 1  65F             Rx   d 8 00 C9 6B 7C 8C 42 56 57
   0.160794 1  651             Rx   d 8 C0 05 26 2F 00 00 C0 00
   0.162789 1  470             Rx   d 8 00 00 00 00 00 00 00 00
   0.164799 1  65D             Rx   d 8 00 00 00 80 98 25 CE 10
   0.166802 1  42B             Rx   d 6 1A 01 04 01 00 00
   0.168794 1  658             Rx   d 8 78 14 00 0F 40 FF 00 00
   0.170803 1  571             Rx   d 6 00 00 00 00 00 00
   0.172785 1  2C1             Rx   d 6 00 00 00 00 22 00
   0.174805 1  35B             Rx   d 8 0F 00 00 00 00 00 00 00
   0.176814 1  470             Rx   d 8 00 00 00 00 00 00 00 00
   0.178825 1  43A             Rx   d 8 0B 01 02 01 00 00 00 00
   0.180803 1  359             Rx   d 8 FF 89 FF 00 00 00 80 00
   0.182801 1  651             Rx   d 8 C0 05 26 2F 00 00 C0 00
   0.184806 1  470             Rx   d 8 00 00 00 00 00 00 00 00
   0.186818 1  42B             Rx   d 6 1A 01 04 01 00 00
   0.188787 1  658             Rx   d 8 78 14 00 0F 40 FF 00 00
   0.190794 1  661             Rx   d 8 80 00 00 00 00 00 00 00
   0.192795 1  63B             Rx   d 5 3A 56 00 00 00
   0.194830 1  2C1             Rx   d 6 00 00 00 00 22 00
   0.196813 1  35B             Rx   d 8 0F 00 00 00 00 00 00 00
   0.198811 1  470             Rx   d 8 00 00 00 00 00 00 00 00
   0.200797 1  575             Rx   d 4 03 00 00 00
   0.202801 1  43A             Rx   d 8 0B 01 02 01 00 00 00 00
   0.204793 1  359             Rx   d 8 FF 89 FF 00 00 00 80 00
   0.206813 1  527             Rx   d 8 04 01 00 00 00 00 00 00
   0.208791 1  65F             Rx   d 8 02 30 30 34 32 33 30 35
   0.210805 1  651             Rx   d 8 C0 05 26 2F 00 00 C0 00
   0.212796 1  470             Rx   d 8 00 00 00 00 00 00 00 00
   0.214785 1  42B             Rx   d 6 1A 01 04 01 00 00
   0.216824 1  658             Rx   d 8 78 14 00 0F 40 FF 00 00
   0.218806 1  2C1             Rx   d 6 00 00 00 00 22 00
   0.220799 1  35B             Rx   d 8 0F 00 00 00 00 00 00 00
   0.222796 1  470             Rx   d 8 00 00 00 00 00 00 00 00
   0.224813 1  43A             Rx   d 8 0B 01 02 01 00 00 00 00
   0.226805 1  359             Rx   d 8 FF 89 FF 00 00 00 80 00
   0.228815 1  651             Rx   d 8 C0 05 26 2F 00 00 C0 00
   0.230798 1  470             Rx   d 8 00 00 00 00 00 00 00 00
   0.232787 1  42B             Rx   d 6 1A 01 04 01 00 00
   0.234817 1  658             Rx   d 8 78 14 00 0F 40 FF 00 00
   0.236805 1  6D2             Rx   d 8 80 08 3A 1A 00 00 00 00
   0.238806 1  653             Rx   d 3 80 0A 40
   0.240801 1  2C1             Rx   d 6 00 00 00 00 22 00
   0.242798 1  35B             Rx   d 8 0F 00 00 00 00 00 00 00
   0.244816 1  470             Rx   d 8 00 00 00 00 00 00 00 00
   0.246817 1  575             Rx   d 4 03 00 00 00
   0.248810 1  43A             Rx   d 8 0B 01 02 01 00 00 00 00
   0.250811 1  359             Rx   d 8 FF 89 FF 00 00 00 80 00
   0.252808 1  527             Rx   d 8 04 01 00 00 00 00 00 00
   0.254769 1  66F             Rx   d 3 3A D5 00
   0.256807 1  6D2             Rx   d 5 C0 00 00 00 00
   0.258806 1  65F             Rx   d 8 00 C9 6B 7C 8C 42 56 57
   0.260804 1  651             Rx   d 8 C0 05 26 2F 00 00 C0 00
   0.262806 1  66F             Rx   d 3 4A D7 01
   0.264814 1  67C             Rx   d 3 0A D7 01
   0.266793 1  470             Rx   d 8 00 00 00 00 00 00 00 00
   0.268795 1  42B             Rx   d 6 1A 01 04 01 00 00
   0.270789 1  658             Rx   d 8 78 14 00 0F 40 FF 00 00
   0.272798 1  2C1             Rx   d 6 00 00 00 00 22 00
   0.274801 1  35B             Rx   d 8 0F 00 00 00 00 00 00 00
   0.276813 1  470             Rx   d 8 00 00 00 00 00 00 00 00
   0.278793 1  655             Rx   d 8 00 00 00 00 00 00 00 00
   0.280800 1  43A             Rx   d 8 0B 01 02 01 00 00 00 00
   0.282807 1  359             Rx   d 8 FF 89 FF 00 00 00 80 00
   0.284816 1  651             Rx   d 8 C0 05 26 2F 00 00 C0 00
   0.286790 1  665             Rx   d 7 80 00 00 00 00 00 F0
   0.288800 1  470             Rx   d 8 00 00 00 00 00 00 00 00
   0.290803 1  42B             Rx   d 6 1A 01 04 01 00 00
   0.292790 1  658             Rx   d 8 78 14 00 0F 40 FF 00 00
   0.294800 1  571             Rx   d 6 00 00 00 00 00 00
   0.296799 1  2C1             Rx   d 6 00 00 00 00 22 00
   0.298816 1  35B             Rx   d 8 0F 00 00 00 00 00 00 00
   0.300795 1  470             Rx   d 8 00 00 00 00 00 00 00 00
   0.302806 1  575             Rx   d 4 03 00 00 00
   0.304795 1  43A             Rx   d 8 0B 01 02 01 00 00 00 00
   0.306818 1  359             Rx   d 8 FF 89 FF 00 00 00 80 00
   0.308809 1  527             Rx   d 8 04 01 00 00 00 00 00 00
   0.310812 1  65F             Rx   d 8 01 45 4B 33 37 50 5A 31
   0.312804 1  651             Rx   d 8 C0 05 26 2F 00 00 C0 00
   0.314805 1  470             Rx   d 8 00 00 00 00 00 00 00 00
   0.316797 1  42B             Rx   d 6 1A 01 04 01 00 00
   0.318810 1  658             Rx   d 8 78 14 00 0F 40 FF 00 00
   0.320804 1  2C1             Rx   d 6 00 00 00 00 22 00
   0.322801 1  35B             Rx   d 8 0F 00 00 00 00 00 00 00
   0.324796 1  470             Rx   d 8 00 00 00 00 00 00 00 00
   0.326804 1  43A             Rx   d 8 0B 01 02 01 00 00 00 00
   0.328791 1  359             Rx   d 8 FF 89 FF 00 00 00 80 00
   0.330804 1  651             Rx   d 8 C0 05 26 2F 00 00 C0 00
   0.332807 1  470             Rx   d 8 00 00 00 00 00 00 00 00
   0.334825 1  42B             Rx   d 6 1A 01 04 01 00 00
   0.336825 1  658             Rx   d 8 78 14 00 0F 40 FF 00 00
   0.338798 1  2C1             Rx   d 6 00 00 00 00 22 00
   0.340805 1  35B             Rx   d 8 0F 00 00 00 00 00 00 00
   0.342810 1  470             Rx   d 8 00 00 00 00 00 00 00 00
   0.344809 1  575             Rx   d 4 03 00 00 00
   0.346798 1  43A             Rx   d 8 0B 01 02 01 00 00 00 00
   0.348812 1  359             Rx   d 8 FF 89 FF 00 00 00 80 00
   0.350802 1  527             Rx   d 8 04 01 00 00 00 00 00 00
   0.352809 1  65F             Rx   d 8 00 C9 6B 7C 8C 42 56 57
   0.354810 1  651             Rx   d 8 C0 05 26 2F 00 00 C0 00
   0.356828 1  62C             Rx   d 3 3C 0F 00
   0.358811 1  470             Rx   d 8 00 00 00 00 00 00 00 00
   0.360802 1  42B             Rx   d 6 1A 01 04 01 00 00
   0.362800 1  658             Rx   d 8 78 14 00 0F 40 FF 00 00
   0.364807 1  653             Rx   d 3 80 0A 40
   0.366804 1  2C1             Rx   d 6 00 00 00 00 22 00
   0.368811 1  35B             Rx   d 8 0F 00 00 00 00 00 00 00
   0.370808 1  470             Rx   d 8 00 00 00 00 00 00 00 00
   0.372798 1  43A             Rx   d 8 0B 01 02 01 00 00 00 00
   0.374810 1  359             Rx   d 8 FF 89 FF 00 00 00 80 00
   0.376810 1  651             Rx   d 8 C0 05 26 2F 00 00 C0 00
   0.378815 1  470             Rx   d 8 00 00 00 00 00 00 00 00
   0.380804 1  42B             Rx   d 6 1A 01 04 01 00 00
   0.382806 1  658             Rx   d 8 78 14 00 0F 40 FF 00 00
   0.384813 1  2C1             Rx   d 6 00 00 00 00 22 00
   0.386811 1  35B             Rx   d 8 0F 00 00 00 00 00 00 00
   0.388810 1  470             Rx   d 8 00 00 00 00 00 00 00 00
   0.390804 1  575             Rx   d 4 03 00 00 00
   0.392813 1  655             Rx   d 8 00 00 00 00 00 00 00 00
   0.394796 1  43A             Rx   d 8 0B 01 02 01 00 00 00 00
   0.396823 1  359             Rx   d 8 FF 89 FF 00 00 00 80 00
   0.398818 1  527             Rx   d 8 04 01 00 00 00 00 00 00
   0.400804 1  65F             Rx   d 8 02 30 30 34 32 33 30 35
   0.402812 1  651             Rx   d 8 C0 05 26 2F 00 00 C0 00
   0.404815 1  470             Rx   d 8 00 00 00 00 00 00 00 00
   0.406826 1  65D             Rx   d 8 00 00 00 80 98 25 4E 11
   0.408799 1  42B             Rx   d 6 1A 01 04 01 00 00
   0.410812 1  658             Rx   d 8 78 14 00 0F 40 FF 00 00
   0.412809 1  571             Rx   d 6 00 00 00 00 00 00
   0.414819 1  2C1             Rx   d 6 00 00 00 00 22 00
   0.416801 1  35B             Rx   d 8 0F 00 00 00 00 00 00 00
   0.418812 1  470             Rx   d 8 00 00 00 00 00 00 00 00
   0.420812 1  43A             Rx   d 8 0B 01 02 01 00 00 00 00
   0.422804 1  359             Rx   d 8 FF 89 FF 00 00 00 80 00
   0.424815 1  651             Rx   d 8 C0 05 26 2F 00 00 C0 00
   0.426813 1  470             Rx   d 8 00 00 00 00 00 00 00 00
   0.428812 1  42B             Rx   d 6 1A 01 04 01 00 00
   0.430808 1  658             Rx   d 8 78 14 00 0F 40 FF 00 00
   0.432799 1  661             Rx   d 8 80 00 00 00 00 00 00 00
   0.434823 1  63B             Rx   d 5 80 01 3A 59 00
   0.436797 1  2C1             Rx   d 6 00 00 00 00 22 00
   0.438795 1  35B             Rx   d 8 0F 00 00 00 00 00 00 00
   0.440813 1  470             Rx   d 8 00 00 00 00 00 00 00 00
   0.442808 1  575             Rx   d 4 03 00 00 00
   0.444829 1  43A             Rx   d 8 0B 01 02 01 00 00 00 00
   0.446812 1  359             Rx   d 8 FF 89 FF 00 00 00 80 00
   0.448810 1  527             Rx   d 8 04 01 00 00 00 00 00 00
   0.450814 1  65F             Rx   d 8 00 C9 6B 7C 8C 42 56 57
   0.452814 1  651             Rx   d 8 C0 05 26 2F 00 00 C0 00
   0.454804 1  470             Rx   d 8 00 00 00 00 00 00 00 00
   0.456814 1  42B             Rx   d 6 1A 01 04 01 00 00
   0.458818 1  658             Rx   d 8 78 14 00 0F 40 FF 00 00
   0.460805 1  2C1             Rx   d 6 00 00 00 00 22 00
   0.462805 1  35B             Rx   d 8 0F 00 00 00 00 00 00 00
   0.464820 1  470             Rx   d 8 00 00 00 00 00 00 00 00
   0.467812 1  43A             Rx   d 8 0B 01 02 01 00 00 00 00
   0.469807 1  359             Rx   d 8 FF 89 FF 00 00 00 80 00
   0.471803 1  651             Rx   d 8 C0 05 26 2F 00 00 C0 00
   0.473821 1  470             Rx   d 8 00 00 00 00 00 00 00 00
   0.475824 1  42B             Rx   d 6 1A 01 04 01 00 00
   0.477822 1  658             Rx   d 8 78 14 00 0F 40 FF 00 00
   0.479829 1  6D2             Rx   d 3 3A 21 01
   0.481817 1  653             Rx   d 3 80 0A 40
   0.483818 1  2C1             Rx   d 6 00 00 00 00 22 00
   0.485811 1  35B             Rx   d 8 0F 00 00 00 00 00 00 00
   0.487808 1  470             Rx   d 8 00 00 00 00 00 00 00 00
   0.489801 1  575             Rx   d 4 03 00 00 00
   0.491816 1  43A             Rx   d 8 0B 01 02 01 00 00 00 00
   0.493814 1  359             Rx   d 8 FF 89 FF 00 00 00 80 00
   0.495817 1  527             Rx   d 8 04 01 00 00 00 00 00 00
   0.497877 1  66F             Rx   d 6 3A D6 03 01 32 00
   0.499818 1  65F             Rx   d 8 01 45 4B 33 37 50 5A 31
   0.501814 1  651             Rx   d 8 C0 05 26 2F 00 00 C0 00
   0.503816 1  470             Rx   d 8 00 00 00 00 00 00 00 00
   0.505807 1  42B             Rx   d 6 1A 01 04 01 00 00
   0.507818 1  658             Rx   d 8 78 14 00 0F 40 FF 00 00
   0.509831 1  2C1             Rx   d 6 00 00 00 00 22 00
   0.511815 1  35B             Rx   d 8 0F 00 00 00 00 00 00 00
   0.513816 1  470             Rx   d 8 00 00 00 00 00 00 00 00
   0.515808 1  655             Rx   d 8 00 00 00 00 00 00 00 00
   0.517819 1  43A             Rx   d 8 0B 01 02 01 00 00 00 00
   0.519818 1  359             Rx   d 8 FF 89 FF 00 00 00 80 00
   0.521808 1  651             Rx   d 8 C0 05 26 2F 00 00 C0 00
   0.523809 1  665             Rx   d 7 80 00 00 00 00 00 F0
   0.525822 1  470             Rx   d 8 00 00 00 00 00 00 00 00
   0.527799 1  42B             Rx   d 6 1A 01 04 01 00 00
   0.529823 1  658             Rx   d 8 78 14 00 0F 40 FF 00 00
   0.531811 1  571             Rx   d 6 00 00 00 00 00 00
   0.533818 1  2C1             Rx   d 6 00 00 00 00 22 00
   0.535815 1  35B             Rx   d 8 0F 00 00 00 00 00 00 00
   0.537800 1  470             Rx   d 8 00 00 00 00 00 00 00 00
   0.539809 1  575             Rx   d 4 03 00 00 00
   0.541817 1  43A             Rx   d 8 0B 01 02 01 00 00 00 00
   0.543799 1  359             Rx   d 8 FF 89 FF 00 00 00 80 00
   0.545817 1  527             Rx   d 8 04 01 00 00 00 00 00 00
   0.547803 1  65F             Rx   d 8 00 C9 6B 7C 8C 42 56 57
   0.549810 1  651             Rx   d 8 C0 05 26 2F 00 00 C0 00
   0.551800 1  470             Rx   d 8 00 00 00 00 00 00 00 00
   0.553817 1  42B             Rx   d 6 1A 01 04 01 00 00
   0.555824 1  658             Rx   d 8 78 14 00 0F 40 FF 00 00
   0.557811 1  2C1             Rx   d 6 00 00 00 00 22 00
   0.559822 1  35B             Rx   d 8 0F 00 00 00 00 00 00 00
   0.561823 1  470             Rx   d 8 00 00 00 00 00 00 00 00
   0.563821 1  43A             Rx   d 8 0B 01 02 01 00 00 00 00
   0.565824 1  359             Rx   d 8 FF 89 FF 00 00 00 80 00
   0.567819 1  651             Rx   d 8 C0 05 26 2F 00 00 C0 00
   0.569818 1  470             Rx   d 8 00 00 00 00 00 00 00 00
   0.571815 1  42B             Rx   d 6 1A 01 04 01 00 00
   0.573823 1  658             Rx   d 8 78 14 00 0F 40 FF 00 00
   0.575822 1  2C1             Rx   d 6 00 00 00 00 22 00
   0.577800 1  35B             Rx   d 8 0F 00 00 00 00 00 00 00
   0.579818 1  470             Rx   d 8 00 00 00 00 00 00 00 00
   0.581821 1  575             Rx   d 4 03 00 00 00
   0.583814 1  43A             Rx   d 8 0B 01 02 01 00 00 00 00
   0.585810 1  359             Rx   d 8 FF 89 FF 00 00 00 80 00
   0.587817 1  527             Rx   d 8 04 01 00 00 00 00 00 00
   0.589819 1  65F             Rx   d 8 02 30 30 34 32 33 30 35
   0.591814 1  651             Rx   d 8 C0 05 26 2F 00 00 C0 00
   0.593818 1  62C             Rx   d 8 80 08 3C 10 00 00 00 00
   0.595816 1  470             Rx   d 8 00 00 00 00 00 00 00 00
   0.597798 1  42B             Rx   d 6 1A 01 04 01 00 00
   0.599817 1  658             Rx   d 8 78 14 00 0F 40 FF 00 00
   0.601821 1  653             Rx   d 3 80 0A 40
   0.603817 1  62C             Rx   d 5 C0 00 00 00 00
   0.605811 1  2C1             Rx   d 6 00 00 00 00 22 00
   0.607817 1  35B             Rx   d 8 0F 00 00 00 00 00 00 00
   0.609802 1  470             Rx   d 8 00 00 00 00 00 00 00 00
   0.611823 1  43A             Rx   d 8 0B 01 02 01 00 00 00 00
   0.613813 1  359             Rx   d 8 FF 89 FF 00 00 00 80 00
   0.615831 1  651             Rx   d 8 C0 05 26 2F 00 00 C0 00
   0.617823 1  470             Rx   d 8 00 00 00 00 00 00 00 00
   0.619825 1  42B             Rx   d 6 1A 01 04 01 00 00
   0.621812 1  658             Rx   d 8 78 14 00 0F 40 FF 00 00
   0.623820 1  2C1             Rx   d 6 00 00 00 00 22 00
   0.625819 1  35B             Rx   d 8 0F 00 00 00 00 00 00 00
   0.627819 1  470             Rx   d 8 00 00 00 00 00 00 00 00
   0.629823 1  575             Rx   d 4 03 00 00 00
   0.631830 1  655             Rx   d 8 00 00 00 00 00 00 00 00
   0.633813 1  43A             Rx   d 8 0B 01 02 01 00 00 00 00
   0.635824 1  359             Rx   d 8 FF 89 FF 00 00 00 80 00
   0.637837 1  527             Rx   d 8 04 01 00 00 00 00 00 00
   0.639830 1  65F             Rx   d 8 00 C9 6B 7C 8C 42 56 57
   0.641804 1  651             Rx   d 8 C0 05 26 2F 00 00 C0 00
   0.643814 1  470             Rx   d 8 00 00 00 00 00 00 00 00
   0.645824 1  65D             Rx   d 8 00 00 00 80 98 25 CE 11
   0.647852 1  42B             Rx   d 6 1A 01 04 01 00 00
   0.649813 1  658             Rx   d 8 78 14 00 0F 40 FF 00 00
   0.651806 1  571             Rx   d 6 00 00 00 00 00 00
   0.653827 1  2C1             Rx   d 6 00 00 00 00 22 00
   0.655804 1  35B             Rx   d 8 0F 00 00 00 00 00 00 00
   0.657820 1  470             Rx   d 8 00 00 00 00 00 00 00 00
   0.659803 1  43A             Rx   d 8 0B 01 02 01 00 00 00 00
   0.661807 1  359             Rx   d 8 FF 89 FF 00 00 00 80 00
   0.663812 1  651             Rx   d 8 C0 05 26 2F 00 00 C0 00
   0.665808 1  470             Rx   d 8 00 00 00 00 00 00 00 00
   0.667820 1  42B             Rx   d 6 1A 01 04 01 00 00
   0.669823 1  658             Rx   d 8 78 14 00 0F 40 FF 00 00
   0.671812 1  661             Rx   d 8 80 00 00 00 00 00 00 00
   0.673831 1  63B             Rx   d 6 3A 5B 00 00 00 00
   0.675816 1  2C1             Rx   d 6 00 00 00 00 22 00
   0.677821 1  35B             Rx   d 8 0F 00 00 00 00 00 00 00
   0.679804 1  470             Rx   d 8 00 00 00 00 00 00 00 00
   0.681823 1  575             Rx   d 4 03 00 00 00
   0.683818 1  43A             Rx   d 8 0B 01 02 01 00 00 00 00
   0.685822 1  359             Rx   d 8 FF 89 FF 00 00 00 80 00
   0.687820 1  527             Rx   d 8 04 01 00 00 00 00 00 00
   0.689810 1  65F             Rx   d 8 01 45 4B 33 37 50 5A 31
   0.691814 1  651             Rx   d 8 C0 05 26 2F 00 00 C0 00
   0.693804 1  470             Rx   d 8 00 00 00 00 00 00 00 00
   0.695823 1  42B             Rx   d 6 1A 01 04 01 00 00
   0.697834 1  658             Rx   d 8 78 14 00 0F 40 FF 00 00
   0.699818 1  2C1             Rx   d 6 00 00 00 00 22 00
   0.701815 1  35B             Rx   d 8 0F 00 00 00 00 00 00 00
   0.703805 1  470             Rx   d 8 00 00 00 00 00 00 00 00
   0.705824 1  43A             Rx   d 8 0B 01 02 01 00 00 00 00
   0.707818 1  359             Rx   d 8 FF 89 FF 00 00 00 80 00
   0.709822 1  651             Rx   d 8 C0 05 26 2F 00 00 C0 00
   0.711820 1  470             Rx   d 8 00 00 00 00 00 00 00 00
   0.713834 1  42B             Rx   d 6 1A 01 04 01 00 00
   0.715819 1  658             Rx   d 8 78 14 00 0F 40 FF 00 00
   0.717824 1  6D2             Rx   d 3 3A 22 00
   0.719814 1  653             Rx   d 3 80 0A 40
   0.721806 1  2C1             Rx   d 6 00 00 00 00 22 00
   0.723808 1  35B             Rx   d 8 0F 00 00 00 00 00 00 00
   0.725813 1  470             Rx   d 8 00 00 00 00 00 00 00 00
   0.727821 1  575             Rx   d 4 03 00 00 00
   0.729835 1  43A             Rx   d 8 0B 01 02 01 00 00 00 00
   0.731827 1  359             Rx   d 8 FF 89 FF 00 00 00 80 00
   0.733845 1  527             Rx   d 8 04 01 00 00 00 00 00 00
   0.735807 1  66F             Rx   d 3 3A D7 01
   0.737824 1  65F             Rx   d 8 00 C9 6B 7C 8C 42 56 57
   0.739849 1  651             Rx   d 8 C0 05 26 2F 00 00 C0 00
   0.741819 1  470             Rx   d 8 00 00 00 00 00 00 00 00
   0.743814 1  42B             Rx   d 6 1A 01 04 01 00 00
   0.745815 1  658             Rx   d 8 78 14 00 0F 40 FF 00 00
   0.747834 1  2C1             Rx   d 6 00 00 00 00 22 00
   0.749822 1  35B             Rx   d 8 0F 00 00 00 00 00 00 00
   0.751818 1  470             Rx   d 8 00 00 00 00 00 00 00 00
   0.753815 1  655             Rx   d 8 00 00 00 00 00 00 00 00
   0.755807 1  43A             Rx   d 8 0B 01 02 01 00 00 00 00
   0.757828 1  359             Rx   d 8 FF 89 FF 00 00 00 80 00
   0.759816 1  651             Rx   d 8 C0 05 26 2F 00 00 C0 00
   0.761824 1  665             Rx   d 7 80 00 00 00 00 00 F0
   0.763807 1  470             Rx   d 8 00 00 00 00 00 00 00 00
   0.765808 1  42B             Rx   d 6 1A 01 04 01 00 00
   0.767809 1  658             Rx   d 8 78 14 00 0F 40 FF 00 00
   0.769820 1  571             Rx   d 6 00 00 00 00 00 00
   0.771827 1  2C1             Rx   d 6 00 00 00 00 22 00
   0.773835 1  35B             Rx   d 8 0F 00 00 00 00 00 00 00
   0.775824 1  470             Rx   d 8 00 00 00 00 00 00 00 00
   0.777836 1  575             Rx   d 4 03 00 00 00
   0.779826 1  43A             Rx   d 8 0B 01 02 01 00 00 00 00
   0.781829 1  359             Rx   d 8 FF 89 FF 00 00 00 80 00
   0.783830 1  527             Rx   d 8 04 01 00 00 00 00 00 00
   0.785827 1  65F             Rx   d 8 02 30 30 34 32 33 30 35
   0.787809 1  651             Rx   d 8 C0 05 26 2F 00 00 C0 00
   0.789826 1  470             Rx   d 8 00 00 00 00 00 00 00 00
   0.791817 1  42B             Rx   d 6 1A 01 04 01 00 00
   0.793823 1  658             Rx   d 8 78 14 00 0F 40 FF 00 00
   0.795809 1  2C1             Rx   d 6 00 00 00 00 22 00
   0.797828 1  35B             Rx   d 8 0F 00 00 00 00 00 00 00
   0.799832 1  470             Rx   d 8 00 00 00 00 00 00 00 00
   0.801824 1  43A             Rx   d 8 0B 01 02 01 00 00 00 00
